freq_hz,mag_db,phase_deg
3.051757812500000000e-02,-3.819343696571306168e+01,1.080321067318987360e+02
6.103515625000000000e-02,-3.146081468343741250e+01,2.182203065949794052e+01
9.155273437500000000e-02,-2.932610521382010305e+01,1.055461334316973563e+02
1.220703125000000000e-01,-2.952366557822038473e+01,6.579401419734598733e+01
1.525878906250000000e-01,-3.552881416579113250e+01,-2.551397840293596175e+01
1.831054687500000000e-01,-2.789307003794359474e+01,1.114416125854759656e+02
2.136230468750000000e-01,-3.156230501880556716e+01,1.543221459809853400e+02
2.441406250000000000e-01,-2.413821892427186455e+01,9.250745016239861229e+01
2.746582031250000000e-01,-1.350228551511092157e+01,9.752413290971068704e+01
3.051757812500000000e-01,-1.351184702028077389e+01,-1.039414982233387121e+02
3.356933593750000000e-01,-6.071960127168929411e+00,7.860140760653494318e+00
3.662109375000000000e-01,-5.544115270509672122e+00,2.239546569829619571e+01
3.967285156250000000e-01,-3.994087270381977639e+00,2.174804167790270171e+01
4.272460937500000000e-01,-3.681723045421209761e+00,2.033931139084944206e+01
4.577636718750000000e-01,-4.009427782246036465e+00,1.255643905760491918e+01
4.882812500000000000e-01,-3.903216160834579895e+00,6.608472886077460196e+00
5.187988281250000000e-01,-3.635502820534148416e+00,4.093449193078076753e+00
5.493164062500000000e-01,-2.839838194861710630e+00,3.056829390623687637e+00
5.798339843750000000e-01,-2.352969129643076140e+00,7.633099793263882493e-02
6.103515625000000000e-01,-1.946723213222526283e+00,-2.280009041260132818e+00
6.408691406250000000e-01,-1.503237617342771060e+00,-3.095456931510828458e+00
6.713867187500000000e-01,-1.118489480469948338e+00,-4.251810685150256397e+00
7.019042968750000000e-01,-6.072063899034778611e-01,-1.070371649029387662e+01
7.324218750000000000e-01,-6.373798709009826924e-01,-1.045014754867439244e+01
7.629394531250000000e-01,-1.687937888099554917e-01,-1.009747264939467826e+01
7.934570312500000000e-01,6.844835182590782718e-01,-1.526581714857868732e+01
8.239746093750000000e-01,1.111790777571156852e+00,-1.630811006018552334e+01
8.544921875000000000e-01,1.418021368009883876e+00,-1.399064871459065529e+01
8.850097656250000000e-01,1.664245883570887319e+00,-1.510979869350825133e+01
9.155273437500000000e-01,8.670506918002107710e-01,-1.411769310527893140e+01
9.460449218750000000e-01,6.509865712704193674e-01,-1.239846766406561684e+01
9.765625000000000000e-01,9.797780590616379515e-01,-1.543784865295161879e+01
1.007080078125000000e+00,8.988233669836233064e-01,-1.372222315883781540e+01
1.037597656250000000e+00,1.016882713724434506e+00,-1.421910466958358654e+01
1.068115234375000000e+00,3.951852363504612109e-01,-1.680797510044743959e+01
1.098632812500000000e+00,1.584908727533306028e+00,-1.838550479954665562e+01
1.129150390625000000e+00,1.890723468828262810e+00,-1.506752482893412548e+01
1.159667968750000000e+00,8.857390795334876277e-01,-1.569705536343348129e+01
1.190185546875000000e+00,7.714132063746568235e-01,-1.561029998908877303e+01
1.220703125000000000e+00,1.109770225613696537e+00,-1.706461472452906136e+01
1.251220703125000000e+00,1.560131425138241434e+00,-2.420096514043685687e+01
1.281738281250000000e+00,1.499548469361263514e+00,-2.349511636954385096e+01
1.312255859375000000e+00,1.522935065951586342e+00,-1.664666223508626430e+01
1.342773437500000000e+00,2.047181845812221734e+00,-1.876201767421845190e+01
1.373291015625000000e+00,2.172932387606828275e+00,-1.751990210794497926e+01
1.403808593750000000e+00,2.169642216842084359e+00,-1.473015258650748827e+01
1.434326171875000000e+00,2.207602961187448809e+00,-1.805402617695711598e+01
1.464843750000000000e+00,2.024754578307442099e+00,-2.138365057262687330e+01
1.495361328125000000e+00,1.604273134973351000e+00,-2.296635829983833688e+01
1.525878906250000000e+00,2.448589921028860861e+00,-2.278975600069159668e+01
1.556396484375000000e+00,3.027358715891147689e+00,-2.290826527383668321e+01
1.586914062500000000e+00,1.810564520135416799e+00,-1.579260469082533547e+01
1.617431640625000000e+00,2.138612123641912000e+00,-1.665427210277490033e+01
1.647949218750000000e+00,3.426524148812220005e+00,-9.864483596076446759e+00
1.678466796875000000e+00,3.673619230847797734e+00,-2.615484709429828314e+01
1.708984375000000000e+00,3.471643629062069358e+00,-3.341667739419546734e+01
1.739501953125000000e+00,3.557035402009704583e+00,-2.835746074873254940e+01
1.770019531250000000e+00,2.313328997002081167e+00,-2.742942379918851969e+01
1.800537109375000000e+00,3.076113913401278932e+00,-2.076585234958900728e+01
1.831054687500000000e+00,3.792186663828114757e+00,-1.864984243377620032e+01
1.861572265625000000e+00,4.107756447295260571e+00,-2.781453573123237533e+01
1.892089843750000000e+00,3.331917659893154138e+00,-2.746583072277402238e+01
1.922607421875000000e+00,2.649604061143928213e+00,-2.217877965089419590e+01
1.953125000000000000e+00,3.776298703206996343e+00,-2.421324399983624431e+01
1.983642578125000000e+00,4.305532953456859602e+00,-1.814491118025366490e+01
2.014160156250000000e+00,3.218609255569070626e+00,-1.738241739802899488e+01
2.044677734375000000e+00,2.743504444676641452e+00,-2.232220171329968750e+01
2.075195312500000000e+00,3.519036770818449344e+00,-1.774599891577049959e+01
2.105712890625000000e+00,2.779561074522298281e+00,-1.871980888558331202e+01
2.136230468750000000e+00,2.848072124175044628e+00,-1.763653944093467985e+01
2.166748046875000000e+00,4.132908700847361061e+00,-1.979555207504083114e+01
2.197265625000000000e+00,3.463207351062346007e+00,-2.455845306471325884e+01
2.227783203125000000e+00,3.235662833620896350e+00,-2.342606904865156636e+01
2.258300781250000000e+00,3.547326376198227216e+00,-2.681187912933772921e+01
2.288818359375000000e+00,2.774999232372738600e+00,-2.764489878109489496e+01
2.319335937500000000e+00,3.982300994139647443e+00,-2.012839421404640916e+01
2.349853515625000000e+00,4.123745119005504556e+00,-2.526833713969960726e+01
2.380371093750000000e+00,3.157860229454056977e+00,-3.683526030828681286e+01
2.410888671875000000e+00,3.255989259583882411e+00,-2.527559929860126786e+01
2.441406250000000000e+00,2.244706758941158675e+00,-1.967579459683966192e+01
2.471923828125000000e+00,2.636862320638382773e+00,-2.478151217254264438e+01
2.502441406250000000e+00,3.691945918626327039e+00,-2.739528316994399049e+01
2.532958984375000000e+00,3.436479234795375426e+00,-3.294454948999825206e+01
2.563476562500000000e+00,3.226441152978507532e+00,-2.956430079092809038e+01
2.593994140625000000e+00,4.033034978646449886e+00,-2.103143117475972801e+01
2.624511718750000000e+00,3.467663212342212198e+00,-2.445234962070552598e+01
2.655029296875000000e+00,3.458045767232076795e+00,-2.769971735542229396e+01
2.685546875000000000e+00,3.020375163609988256e+00,-2.769108115947507187e+01
2.716064453125000000e+00,3.098226626742520029e+00,-2.602250328977592986e+01
2.746582031250000000e+00,3.934238667797711919e+00,-2.602224171611098669e+01
2.777099609375000000e+00,3.750534297691265895e+00,-2.157768369670901976e+01
2.807617187500000000e+00,3.412682300283173653e+00,-2.692264434631891135e+01
2.838134765625000000e+00,3.907536025900238741e+00,-3.268429836122297161e+01
2.868652343750000000e+00,3.604078993647946483e+00,-3.478716076066907448e+01
2.899169921875000000e+00,2.996908336891589641e+00,-3.397758115105558829e+01
2.929687500000000000e+00,2.689599198085432796e+00,-3.647849052535836023e+01
2.960205078125000000e+00,3.838867782173860377e+00,-3.409425862221460335e+01
2.990722656250000000e+00,3.750069158487009169e+00,-2.123235749950874052e+01
3.021240234375000000e+00,3.611758705777312173e+00,-2.988656700519611675e+01
3.051757812500000000e+00,2.907326975952305936e+00,-3.583484120190142619e+01
3.082275390625000000e+00,3.219605776368397176e+00,-3.193822397819526770e+01
3.112792968750000000e+00,3.971667777781536124e+00,-2.605637472465025439e+01
3.143310546875000000e+00,5.713713347559286504e+00,-3.115802937187423183e+01
3.173828125000000000e+00,4.750985475513306078e+00,-3.556723890569882940e+01
3.204345703125000000e+00,2.761618555546406562e+00,-4.039196737542861371e+01
3.234863281250000000e+00,2.765388171453115440e+00,-3.856089191015669115e+01
3.265380859375000000e+00,2.757497153617101127e+00,-3.709101957846954178e+01
3.295898437500000000e+00,3.318804270426586100e+00,-3.895662391800410518e+01
3.326416015625000000e+00,4.057870236065611813e+00,-3.295033281187533447e+01
3.356933593750000000e+00,4.839614052038529124e+00,-3.526835430537604310e+01
3.387451171875000000e+00,5.852861049460483578e+00,-3.651623757692909322e+01
3.417968750000000000e+00,5.889442420634382280e+00,-2.312017693444413524e+01
3.448486328125000000e+00,4.245436397849961629e+00,-3.213803111857907879e+01
3.479003906250000000e+00,4.009872627666428713e+00,-3.644037632620236877e+01
3.509521484375000000e+00,3.850948013489636335e+00,-3.013661120605637933e+01
3.540039062500000000e+00,4.385399215408414264e+00,-3.093333144495722209e+01
3.570556640625000000e+00,5.291298340601370498e+00,-3.129138921527580663e+01
3.601074218750000000e+00,3.985933219706258690e+00,-3.512990884612606379e+01
3.631591796875000000e+00,3.751848898659515541e+00,-3.241654435412750956e+01
3.662109375000000000e+00,3.375640908011041219e+00,-3.282430423992236257e+01
3.692626953125000000e+00,3.808589882140704486e+00,-3.500316760410368744e+01
3.723144531250000000e+00,4.136413046485325928e+00,-4.519274091293210915e+01
3.753662109375000000e+00,4.066077494533956838e+00,-3.972975235320956244e+01
3.784179687500000000e+00,3.421881656529458304e+00,-3.332446946101089935e+01
3.814697265625000000e+00,4.034094345684741789e+00,-3.195694057936688637e+01
3.845214843750000000e+00,4.200124151335441702e+00,-4.325829295904711103e+01
3.875732421875000000e+00,5.473934356836990034e+00,-3.982096846323516104e+01
3.906250000000000000e+00,5.032612840349339756e+00,-3.176732549133173578e+01
3.936767578125000000e+00,3.199955577943167206e+00,-2.688021133665216666e+01
3.967285156250000000e+00,3.278629071888499169e+00,-3.117972114877801459e+01
3.997802734375000000e+00,3.603736019807499247e+00,-3.576335043222663757e+01
4.028320312500000000e+00,4.282980413468507663e+00,-3.551951603581814965e+01
4.058837890625000000e+00,5.189864725922179289e+00,-3.549450876260601007e+01
4.089355468750000000e+00,4.665456108808986535e+00,-4.097460177157088879e+01
4.119873046875000000e+00,4.320710226395082287e+00,-4.594845095435636040e+01
4.150390625000000000e+00,4.483118379167447820e+00,-3.480567474363152769e+01
4.180908203125000000e+00,5.451802985745629826e+00,-3.321579751035526584e+01
4.211425781250000000e+00,4.632779852355391803e+00,-3.790018420554244472e+01
4.241943359375000000e+00,5.128250150448692146e+00,-4.719024154762288248e+01
4.272460937500000000e+00,7.258516864257292589e+00,-4.557896913573902253e+01
4.302978515625000000e+00,7.026860754207156390e+00,-3.226367081198499420e+01
4.333496093750000000e+00,5.064103245465418901e+00,-4.397170034611139755e+01
4.364013671875000000e+00,4.065797552670849413e+00,-3.729843638630071467e+01
4.394531250000000000e+00,4.783902910493268656e+00,-4.131751471692685840e+01
4.425048828125000000e+00,4.391563624846745562e+00,-4.697253625175224556e+01
4.455566406250000000e+00,4.297239776924353549e+00,-4.813446715591087610e+01
4.486083984375000000e+00,3.572654248066357674e+00,-4.730264706370178374e+01
4.516601562500000000e+00,3.700995158940613372e+00,-4.434710637313160930e+01
4.547119140625000000e+00,3.474173842063572604e+00,-3.897157775421244708e+01
4.577636718750000000e+00,3.905261452495582652e+00,-4.080893542867150359e+01
4.608154296875000000e+00,3.138499160486980522e+00,-3.749501755634170053e+01
4.638671875000000000e+00,4.379223105370392055e+00,-3.583744862704685374e+01
4.669189453125000000e+00,5.309445365941911632e+00,-3.823047839309855078e+01
4.699707031250000000e+00,3.749343267522479373e+00,-4.300609204187321666e+01
4.730224609375000000e+00,4.770647315885726769e+00,-4.264285451138015759e+01
4.760742187500000000e+00,4.721793686370848064e+00,-3.999739144221515375e+01
4.791259765625000000e+00,3.457247121486632491e+00,-3.787755737017642588e+01
4.821777343750000000e+00,3.500119745771903990e+00,-4.403902344011870440e+01
4.852294921875000000e+00,4.296061017836615648e+00,-3.561932185578550047e+01
4.882812500000000000e+00,4.095046132653773263e+00,-3.445786527354842832e+01
4.913330078125000000e+00,4.154965752609800944e+00,-4.701953679118325624e+01
4.943847656250000000e+00,4.665742548803740064e+00,-3.535843983427551507e+01
4.974365234375000000e+00,5.721302685745289551e+00,-2.180485671523305058e+01
5.004882812500000000e+00,4.280663261226882454e+00,-3.505148311922170024e+01
5.035400390625000000e+00,3.186614360276944335e+00,-3.487887272325259858e+01
5.065917968750000000e+00,3.560710168440517798e+00,-3.378214737631483189e+01
5.096435546875000000e+00,4.273068404537157861e+00,-3.212971631395785010e+01
5.126953125000000000e+00,3.928367996965211884e+00,-2.787625668752863106e+01
5.157470703125000000e+00,3.359347002999222731e+00,-1.903391500846659312e+01
5.187988281250000000e+00,6.361065923222999352e+00,-3.080643117916545037e+01
5.218505859375000000e+00,6.601308581612560289e+00,-2.252104366633746935e+01
5.249023437500000000e+00,8.368905996737156627e+00,-4.366805645057231544e+01
5.279541015625000000e+00,5.623230196068144338e+00,-2.845441549596513298e+01
5.310058593750000000e+00,6.227775706811531364e+00,-3.646661059855138376e+01
5.340576171875000000e+00,3.411414574959529489e+00,-3.975224492929943665e+01
5.371093750000000000e+00,2.324767533932488917e+00,-1.646135344763507646e+01
5.401611328125000000e+00,2.957662806314749648e+00,-3.846785661564578618e+01
5.432128906250000000e+00,-3.823233175660645800e-01,-4.735519893552667270e+01
5.462646484375000000e+00,2.907263947671608895e-01,-4.088401347107607364e+01
5.493164062500000000e+00,1.888625134464739563e+00,-5.567759466293757953e+01
5.523681640625000000e+00,3.913832976578548450e+00,-7.924731383424828834e+01
5.554199218750000000e+00,5.548996966303946010e+00,-5.916000115846811269e+01
5.584716796875000000e+00,-2.461503422492316684e+00,-6.645333748015048059e+01
5.615234375000000000e+00,-1.780070552464861899e+00,-5.624237360557680176e+01
5.645751953125000000e+00,-6.871925784458438047e-01,-6.143464865625199423e+01
5.676269531250000000e+00,-1.738847465749550958e+00,-7.231683520511157326e+01
5.706787109375000000e+00,-5.275612835877289797e+00,-9.398558499617378459e+01
5.737304687500000000e+00,8.249057580636526277e-02,-9.817559481647043640e+01
5.767822265625000000e+00,3.016453569744777852e+00,-1.741727145928384601e+01
5.798339843750000000e+00,-3.073557712275314824e+00,-1.668051646695755608e+01
5.828857421875000000e+00,7.430573942515803054e+00,-8.776529653300958955e+01
5.859375000000000000e+00,-4.919508276501623811e+00,6.875771488631126260e+01
5.889892578125000000e+00,-6.794572186911524092e+00,8.282667755147733146e+01
5.920410156250000000e+00,5.187387203863194962e+00,-1.652102885175003166e+02
5.950927734375000000e+00,-5.707736350523651137e-01,2.185539370321491504e+01
5.981445312500000000e+00,-1.009537779290766935e+01,-2.066192247930946024e+00
6.011962890625000000e+00,-1.160354982944749835e+01,4.183084189824112009e+00
6.042480468750000000e+00,1.625743743210629333e+01,1.619824660610452938e+01
6.072998046875000000e+00,-8.357771437164391415e+00,-1.344800396550816401e+02
6.103515625000000000e+00,-7.647607495347981121e+00,2.201613217497373398e+01
6.134033203125000000e+00,-4.745259379500682329e+00,4.988714316519366321e+01
6.164550781250000000e+00,-1.174151002474166816e+00,1.695171937959116235e+02
6.195068359375000000e+00,-1.017683663425034801e+01,6.216390599837562547e+01
6.225585937500000000e+00,6.072697660685534515e+00,-1.314492281235177416e+02
6.256103515625000000e+00,-2.021987028032078726e+01,-1.177822621003050614e+02
6.286621093750000000e+00,-1.572712908607226190e+01,-1.002583253872486466e+02
6.317138671875000000e+00,-8.722407668113177692e+00,-3.055878764318548235e+01
6.347656250000000000e+00,-1.697955952353486353e+01,-4.280512035825061901e+01
6.378173828125000000e+00,-2.014198274865354321e+01,-6.748551370168834751e+01
6.408691406250000000e+00,-1.622996214620905064e+01,-1.082905167148822159e+02
6.439208984375000000e+00,-1.814343297062498550e+01,-1.351622007551357569e+02
6.469726562500000000e+00,-1.954364891221150557e+01,-8.184425996974123052e+01
6.500244140625000000e+00,-2.100512200026686571e+01,-4.104857678185830139e+01
6.530761718750000000e+00,-1.287497501510245712e+01,-1.077144171063037987e+02
6.561279296875000000e+00,-1.887353767968220097e+01,2.129494699891701259e+01
6.591796875000000000e+00,-1.926980153835008736e+01,-8.778605681686151740e+00
6.622314453125000000e+00,-1.333800705562655509e+01,-1.188873910313735252e+02
6.652832031250000000e+00,-1.101311344548952320e+01,9.419227713327518359e+01
6.683349609375000000e+00,-2.430716614387426588e+01,1.127275669628594699e+02
6.713867187500000000e+00,-2.684216520030595987e+01,1.055393256162107036e+02
6.744384765625000000e+00,-2.099827324511887383e+01,-4.648703855696534504e+01
6.774902343750000000e+00,-2.871941178231348957e+01,-5.118074889542773320e+01
6.805419921875000000e+00,-2.696013835025405925e+01,-3.950096757591028052e+01
6.835937500000000000e+00,-2.569790533627145379e+01,7.041077342589601074e+01
6.866455078125000000e+00,-2.299685260047277779e+01,1.233977857606759443e+02
6.896972656250000000e+00,-2.603274255904394963e+01,1.656204861218213296e+02
6.927490234375000000e+00,-2.320884520487675218e+01,-6.308076117074248401e+01
6.958007812500000000e+00,-3.064070974049599272e+01,4.342249996956427083e+01
6.988525390625000000e+00,-3.319780347105866269e+01,1.370078727902423168e+02
7.019042968750000000e+00,-3.358977613903521586e+01,1.239596028652491100e+02
7.049560546875000000e+00,-3.395050119729625493e+01,1.134571628806860275e+02
7.080078125000000000e+00,-2.835101246521510632e+01,1.454620400625533136e+02
7.110595703125000000e+00,-3.109831021723657685e+01,9.560777065578771783e+01
7.141113281250000000e+00,-3.250893767770968878e+01,-6.731573146374400096e+01
7.171630859375000000e+00,-2.665105392369662596e+01,6.580182644654891533e+01
7.202148437500000000e+00,-3.505969557623838284e+01,1.070944487343068374e+02
7.232666015625000000e+00,-3.387765230886786583e+01,1.101760750206050687e+02
7.263183593750000000e+00,-3.827746018112153337e+01,6.613555356053885248e+01
7.293701171875000000e+00,-3.336842095385336648e+01,4.610724208137686730e+01
7.324218750000000000e+00,-4.209072651546922827e+01,-1.566166255529469886e+01
7.354736328125000000e+00,-3.055124676949436235e+01,-5.586372316384556314e+01
7.385253906250000000e+00,-3.874577747794464244e+01,1.473723596633237207e+02
7.415771484375000000e+00,-3.518436056045597837e+01,1.542294189745913400e+02
7.446289062500000000e+00,-2.664229948539654913e+01,-1.556944195907435891e+01
7.476806640625000000e+00,-3.173383537413053546e+01,1.046013755767334601e+02
7.507324218750000000e+00,-4.249735059659963099e+01,2.716035225447033241e+01
7.537841796875000000e+00,-4.464623273402861514e+01,-2.381307023187458327e+01
7.568359375000000000e+00,-4.191190355617283814e+01,3.495984624536536245e+01
7.598876953125000000e+00,-3.836000585551269637e+01,-1.652149003410759747e+02
7.629394531250000000e+00,-2.566322763901612092e+01,-1.158318858222674841e+01
7.659912109375000000e+00,-4.599505414822858285e+01,-5.947303191526004440e+01
7.690429687500000000e+00,-4.861161503388677829e+01,-1.614323285599443807e+02
7.720947265625000000e+00,-4.497752376010250686e+01,-1.406102313809442421e+02
7.751464843750000000e+00,-4.590712491936134398e+01,-1.306045616981747344e+02
7.781982421875000000e+00,-4.994411105011214147e+01,-1.016750008343910991e+02
7.812500000000000000e+00,-4.058985781744950572e+01,-3.657973267179090016e+01
7.843017578125000000e+00,-4.807820282893342778e+01,6.799907764875872829e+01
7.873535156250000000e+00,-4.096800028139807637e+01,-7.495102357721808062e+01
7.904052734375000000e+00,-4.591460855713176414e+01,-1.360746032891935329e+02
7.934570312500000000e+00,-4.527195426911607257e+01,-7.848451063120016613e+01
7.965087890625000000e+00,-5.300917433717593497e+01,8.064098061099538484e+01
7.995605468750000000e+00,-5.638482714155357201e+01,6.869954722282498949e+01
